(1789440816.532994) can0 0205B941#0000000000000000
(1789440816.539174) can0 0205B801#00006D0600182000
(1789440816.545253) can0 01011840#FFFFFFFFFFFFFFFF
(1789440816.546120) can0 02051081#0000C84200000000
(1789440816.547011) can0 0205B881#2B1815320531E339
(1789440816.553179) can0 0205B941#0000000000000000
(1789440816.559189) can0 0205B801#00006D0600182000
(1789440816.564662) can0 01011840#FFFFFFFFFFFFFFFF
(1789440816.565055) can0 02051081#0000C84200000000
(1789440816.566942) can0 0205B881#2B1815320531E339
(1789440816.572998) can0 0205B941#0000000000000000
(1789440816.579003) can0 0205B801#00006C0600182000
(1789440816.584542) can0 01011840#FFFFFFFFFFFFFFFF
(1789440816.584925) can0 02051081#0000C84200000000
(1789440816.586997) can0 0205B881#2B1815320531E339
(1789440816.592957) can0 0205B941#0000000000000000
(1789440816.598954) can0 0205B801#00006D0600182000
(1789440816.601051) can0 0205B841#0000000000400000
(1789440816.604519) can0 01011840#FFFFFFFFFFFFFFFF
(1789440816.604908) can0 02051081#0000C84200000000
(1789440816.607006) can0 0205B881#2B1815320531E339
(1789440816.612989) can0 0205B941#0000000000000000
(1789440816.616107) can0 02051801#0000FFFFFFFF0000
(1789440816.617904) can0 0205BC01#6B392E9A
(1789440816.619013) can0 0205B801#0000690600182000
(1789440816.624532) can0 01011840#FFFFFFFFFFFFFFFF
(1789440816.624915) can0 02051081#0000C84200000000
(1789440816.626990) can0 0205B881#2B1815320531E339
(1789440816.632958) can0 0205B941#0000000000000000
(1789440816.638992) can0 0205B801#00006C0600182000
(1789440816.644615) can0 01011840#FFFFFFFFFFFFFFFF
(1789440816.645025) can0 02051081#0000C84200000000
(1789440816.646957) can0 0205B881#2B1815320531E339
(1789440816.652980) can0 0205B941#0000000000000000
(1789440816.658981) can0 0205B801#00006D0600182000
(1789440816.664559) can0 01011840#FFFFFFFFFFFFFFFF
(1789440816.664951) can0 02051081#0000C84200000000
(1789440816.666962) can0 0205B881#2B1815320531E339
(1789440816.673057) can0 0205B941#0000000000000000
(1789440816.679009) can0 0205B801#00006D0600182000
(1789440816.684494) can0 01011840#FFFFFFFFFFFFFFFF
(1789440816.684864) can0 02051081#0000C84200000000
(1789440816.686938) can0 0205B881#2B1815320531E339
(1789440816.693000) can0 0205B941#0000000000000000
(1789440816.698949) can0 0205B801#00006C0600182000
(1789440816.704494) can0 01011840#FFFFFFFFFFFFFFFF
(1789440816.704878) can0 02051081#0000C84200000000
(1789440816.706944) can0 0205B881#2B1815320531E339
(1789440816.712986) can0 0205B941#0000000000000000
(1789440816.718960) can0 0205B801#00006C0600182000
(1789440816.724535) can0 01011840#FFFFFFFFFFFFFFFF
(1789440816.724921) can0 02051081#0000C84200000000
(1789440816.726944) can0 0205B881#2B1815320531E339
(1789440816.733006) can0 0205B941#0000000000000000
(1789440816.738956) can0 0205B801#00006B0600182000
(1789440816.744494) can0 01011840#FFFFFFFFFFFFFFFF
(1789440816.744878) can0 02051081#0000C84200000000
(1789440816.746944) can0 0205B881#2B1815320531E339
(1789440816.753005) can0 0205B941#0000000000000000
(1789440816.759029) can0 0205B801#00006B0600182000
(1789440816.764515) can0 01011840#FFFFFFFFFFFFFFFF
(1789440816.764898) can0 02051081#0000C84200000000
(1789440816.766939) can0 0205B881#2B1815320531E339
(1789440816.773002) can0 0205B941#0000000000000000
(1789440816.778955) can0 0205B801#00006C0600182000
(1789440816.784515) can0 01011840#FFFFFFFFFFFFFFFF
(1789440816.784899) can0 02051081#0000C84200000000
(1789440816.786943) can0 0205B881#2B1815320531E339
(1789440816.793022) can0 0205B941#0000000000000000
(1789440816.798958) can0 0205B801#00006B0600182000
(1789440816.804538) can0 01011840#FFFFFFFFFFFFFFFF
(1789440816.804923) can0 02051081#0000C84200000000
(1789440816.806953) can0 0205B881#2B1815320531E339
(1789440816.812951) can0 0205B941#0000000000000000
(1789440816.819002) can0 0205B801#00006C0600182000
(1789440816.824501) can0 01011840#FFFFFFFFFFFFFFFF
(1789440816.824890) can0 02051081#0000C84200000000
(1789440816.826993) can0 0205B881#2B1815320531E339
(1789440816.833001) can0 0205B941#0000000000000000
(1789440816.839007) can0 0205B801#00006B0600182000
(1789440816.844546) can0 01011840#FFFFFFFFFFFFFFFF
(1789440816.844946) can0 02051081#0000C84200000000
(1789440816.846998) can0 0205B881#2B1815320531E339
(1789440816.850997) can0 0205B841#0000000000400000
(1789440816.852952) can0 0205B941#0000000000000000
(1789440816.858946) can0 0205B801#00006A0600182000
(1789440816.864512) can0 01011840#FFFFFFFFFFFFFFFF
(1789440816.864896) can0 02051081#0000C84200000000
(1789440816.866944) can0 0205B881#2B1815320531E339
(1789440816.872960) can0 0205B941#0000000000000000
(1789440816.879003) can0 0205B801#00006A0600182000
(1789440816.884490) can0 01011840#FFFFFFFFFFFFFFFF
(1789440816.884873) can0 02051081#0000C84200000000
(1789440816.886945) can0 0205B881#2B1815320531E339
(1789440816.892957) can0 0205B941#0000000000000000
(1789440816.898955) can0 0205B801#00006A0600182000
(1789440816.904516) can0 01011840#FFFFFFFFFFFFFFFF
(1789440816.904905) can0 02051081#0000C84200000000
(1789440816.906942) can0 0205B881#2B1815320531E339
(1789440816.912952) can0 0205B941#0000000000000000
(1789440816.919007) can0 0205B801#00006A0600182000
(1789440816.924503) can0 01011840#FFFFFFFFFFFFFFFF
(1789440816.924888) can0 02051081#0000C84200000000
(1789440816.926939) can0 0205B881#2B1815320531E339
(1789440816.932953) can0 0205B941#0000000000000000
(1789440816.938948) can0 0205B801#00006A0600182000
(1789440816.944488) can0 01011840#FFFFFFFFFFFFFFFF
(1789440816.944873) can0 02051081#0000C84200000000
(1789440816.946994) can0 0205B881#2B1815320531E339
(1789440816.952951) can0 0205B941#0000000000000000
(1789440816.958950) can0 0205B801#00006B0600182000
(1789440816.964603) can0 01011840#FFFFFFFFFFFFFFFF
(1789440816.965002) can0 02051081#0000C84200000000
(1789440816.966992) can0 0205B881#2B1815320531E339
(1789440816.973007) can0 0205B941#0000000000000000
(1789440816.978944) can0 0205B801#0000690600182000
(1789440816.984518) can0 01011840#FFFFFFFFFFFFFFFF
(1789440816.984898) can0 02051081#0000C84200000000
(1789440816.986989) can0 0205B881#2B1815320531E339
(1789440816.993039) can0 0205B941#0000000000000000
(1789440816.999001) can0 0205B801#0000690600182000
(1789440817.004487) can0 01011840#FFFFFFFFFFFFFFFF
(1789440817.004871) can0 02051081#0000C84200000000
(1789440817.007000) can0 0205B881#2B1815320531E339
(1789440817.012948) can0 0205B941#0000000000000000
(1789440817.018955) can0 0205B801#00006B0600182000
(1789440817.024484) can0 01011840#FFFFFFFFFFFFFFFF
(1789440817.024870) can0 02051081#0000C84200000000
(1789440817.026993) can0 0205B881#2B1815320531E339
(1789440817.032998) can0 0205B941#0000000000000000
(1789440817.039002) can0 0205B801#0000690600182000
(1789440817.044508) can0 01011840#FFFFFFFFFFFFFFFF
(1789440817.044898) can0 02051081#0000C84200000000
(1789440817.046938) can0 0205B881#2B1815320531E339
(1789440817.053013) can0 0205B941#0000000000000000
(1789440817.058945) can0 0205B801#0000690600182000
(1789440817.064528) can0 01011840#FFFFFFFFFFFFFFFF
(1789440817.064912) can0 02051081#0000C84200000000
(1789440817.066948) can0 0205B881#2B1815320531E339
(1789440817.072963) can0 0205B941#0000000000000000
(1789440817.078944) can0 0205B801#00006B0600182000
(1789440817.084517) can0 01011840#FFFFFFFFFFFFFFFF
(1789440817.084901) can0 02051081#0000C84200000000
(1789440817.086993) can0 0205B881#2B1815320531E339
(1789440817.093013) can0 0205B941#0000000000000000
(1789440817.098946) can0 0205B801#0000680600182000
(1789440817.100997) can0 0205B841#0000000000400000
(1789440817.104514) can0 01011840#FFFFFFFFFFFFFFFF
(1789440817.104899) can0 02051081#0000C84200000000
(1789440817.106992) can0 0205B881#2B1815320531E339
(1789440817.112957) can0 0205B941#0000000000000000
(1789440817.119003) can0 0205B801#0000680600182000
(1789440817.124538) can0 01011840#FFFFFFFFFFFFFFFF
(1789440817.124925) can0 02051081#0000C84200000000
(1789440817.126941) can0 0205B881#2B1815320531E339
(1789440817.132949) can0 0205B941#0000000000000000
(1789440817.138994) can0 0205B801#00006B0600182000
(1789440817.144530) can0 01011840#FFFFFFFFFFFFFFFF
(1789440817.144920) can0 02051081#0000C84200000000
(1789440817.146986) can0 0205B881#2B1815320531E339
(1789440817.152954) can0 0205B941#0000000000000000
(1789440817.158946) can0 0205B801#0000690600182000
(1789440817.164545) can0 01011840#FFFFFFFFFFFFFFFF
(1789440817.164932) can0 02051081#0000C84200000000
(1789440817.166936) can0 0205B881#2B1815320531E339
(1789440817.172944) can0 0205B941#0000000000000000
(1789440817.178995) can0 0205B801#0000680600182000
(1789440817.184491) can0 01011840#FFFFFFFFFFFFFFFF
(1789440817.184876) can0 02051081#0000C84200000000
(1789440817.186939) can0 0205B881#2B1815320531E339
(1789440817.192950) can0 0205B941#0000000000000000
(1789440817.199000) can0 0205B801#00006A0600182000
(1789440817.204490) can0 01011840#FFFFFFFFFFFFFFFF
(1789440817.204874) can0 02051081#0000C84200000000
(1789440817.206942) can0 0205B881#2B1815320531E339
(1789440817.212956) can0 0205B941#0000000000000000
(1789440817.219006) can0 0205B801#0000690600182000
(1789440817.224483) can0 01011840#FFFFFFFFFFFFFFFF
(1789440817.224869) can0 02051081#0000C84200000000
(1789440817.226939) can0 0205B881#2B1815320531E339
(1789440817.232999) can0 0205B941#0000000000000000
(1789440817.239027) can0 0205B801#00006A0600182000
(1789440817.244533) can0 01011840#FFFFFFFFFFFFFFFF
(1789440817.244914) can0 02051081#0000C84200000000
(1789440817.246937) can0 0205B881#2B1815320531E339
(1789440817.252951) can0 0205B941#0000000000000000
(1789440817.258945) can0 0205B801#00006B0600182000
(1789440817.264574) can0 01011840#FFFFFFFFFFFFFFFF
(1789440817.264965) can0 02051081#0000C84200000000
(1789440817.266939) can0 0205B881#2B1815320531E339
(1789440817.272952) can0 0205B941#0000000000000000
(1789440817.278941) can0 0205B801#0000680600182000
(1789440817.284501) can0 01011840#FFFFFFFFFFFFFFFF
(1789440817.284883) can0 02051081#0000C84200000000
(1789440817.286937) can0 0205B881#2B1815320531E339
(1789440817.292948) can0 0205B941#0000000000000000
(1789440817.298943) can0 0205B801#00006A0600182000
(1789440817.304531) can0 01011840#FFFFFFFFFFFFFFFF
(1789440817.304920) can0 02051081#0000C84200000000
(1789440817.306988) can0 0205B881#2B1815320531E339
(1789440817.312996) can0 0205B941#0000000000000000
(1789440817.318954) can0 0205B801#00006B0600182000
(1789440817.324531) can0 01011840#FFFFFFFFFFFFFFFF
(1789440817.324916) can0 02051081#0000C84200000000
(1789440817.326988) can0 0205B881#2B1815320531E339
(1789440817.333015) can0 0205B941#0000000000000000
(1789440817.338943) can0 0205B801#0000690600182000
(1789440817.344529) can0 01011840#FFFFFFFFFFFFFFFF
(1789440817.344911) can0 02051081#0000C84200000000
(1789440817.346933) can0 0205B881#2B1815320531E339
(1789440817.350995) can0 0205B841#0000000000400000
(1789440817.352995) can0 0205B941#0000000000000000
(1789440817.359011) can0 0205B801#00006A0600182000
(1789440817.364542) can0 01011840#FFFFFFFFFFFFFFFF
(1789440817.364926) can0 02051081#0000C84200000000
(1789440817.366984) can0 0205B881#2B1815320531E339
(1789440817.372946) can0 0205B941#0000000000000000
(1789440817.378944) can0 0205B801#00006B0600182000
(1789440817.384557) can0 01011840#FFFFFFFFFFFFFFFF
(1789440817.384942) can0 02051081#0000C84200000000
(1789440817.386938) can0 0205B881#2B1815320531E339
(1789440817.392954) can0 0205B941#0000000000000000
(1789440817.398946) can0 0205B801#00006A0600182000
(1789440817.404525) can0 01011840#FFFFFFFFFFFFFFFF
(1789440817.404912) can0 02051081#0000C84200000000
(1789440817.406937) can0 0205B881#2B1815320531E339
(1789440817.412999) can0 0205B941#0000000000000000
(1789440817.418991) can0 0205B801#00006B0600182000
(1789440817.424533) can0 01011840#FFFFFFFFFFFFFFFF
(1789440817.424921) can0 02051081#0000C84200000000
(1789440817.426935) can0 0205B881#2B1815320531E339
(1789440817.432950) can0 0205B941#0000000000000000
(1789440817.438945) can0 0205B801#00006D0600182000
(1789440817.444555) can0 01011840#FFFFFFFFFFFFFFFF
(1789440817.446383) can0 02051081#0000C84200000000
(1789440817.446985) can0 0205B881#2B1815320531E339
(1789440817.452998) can0 0205B941#0000000000000000
(1789440817.458987) can0 0205B801#00006B0600182000
(1789440817.464542) can0 01011840#FFFFFFFFFFFFFFFF
(1789440817.464934) can0 02051081#0000C84200000000
(1789440817.466986) can0 0205B881#2B1815320531E339
(1789440817.472996) can0 0205B941#0000000000000000
(1789440817.478990) can0 0205B801#00006B0600182000
(1789440817.484514) can0 01011840#FFFFFFFFFFFFFFFF
(1789440817.484897) can0 02051081#0000C84200000000
(1789440817.486941) can0 0205B881#2B1815320531E339
(1789440817.492975) can0 0205B941#0000000000000000
(1789440817.498942) can0 0205B801#00006D0600182000
(1789440817.504551) can0 01011840#FFFFFFFFFFFFFFFF
(1789440817.504936) can0 02051081#0000C84200000000
(1789440817.506930) can0 0205B881#2B1815320531E339
(1789440817.512943) can0 0205B941#0000000000000000
(1789440817.518995) can0 0205B801#00006A0600182000
(1789440817.524544) can0 01011840#FFFFFFFFFFFFFFFF
(1789440817.524930) can0 02051081#0000C84200000000
(1789440817.526934) can0 0205B881#2B1815320531E339
(1789440817.532945) can0 0205B941#0000000000000000
(1789440817.538989) can0 0205B801#00006C0600182000
(1789440817.544522) can0 01011840#FFFFFFFFFFFFFFFF
(1789440817.544905) can0 02051081#0000C84200000000
(1789440817.546933) can0 0205B881#2B1815320531E339
(1789440817.552940) can0 0205B941#0000000000000000
(1789440817.558938) can0 0205B801#00006D0600182000
(1789440817.565311) can0 01011840#FFFFFFFFFFFFFFFF
(1789440817.565843) can0 02051081#0000C84200000000
(1789440817.566955) can0 0205B881#2B1815320531E339
(1789440817.573021) can0 0205B941#0000000000000000
(1789440817.578943) can0 0205B801#00006B0600182000
(1789440817.584523) can0 01011840#FFFFFFFFFFFFFFFF
(1789440817.584899) can0 02051081#0000C84200000000
(1789440817.586923) can0 0205B881#2B1815320531E339
(1789440817.592991) can0 0205B941#0000000000000000
(1789440817.598989) can0 0205B801#00006C0600182000
(1789440817.600938) can0 0205B841#0000000000400000
(1789440817.604513) can0 01011840#FFFFFFFFFFFFFFFF
(1789440817.604897) can0 02051081#0000C84200000000
(1789440817.606990) can0 0205B881#2B1815320531E339
(1789440817.613003) can0 0205B941#0000000000000000
(1789440817.615942) can0 02051801#0000FFFFFFFF0000
(1789440817.617891) can0 0205BC01#6B392E9A
(1789440817.619029) can0 0205B801#0000710600182000
(1789440817.624511) can0 01011840#FFFFFFFFFFFFFFFF
(1789440817.624896) can0 02051081#0000C84200000000
(1789440817.626981) can0 0205B881#2B1815320531E339
(1789440817.632944) can0 0205B941#0000000000000000
(1789440817.638969) can0 0205B801#00006C0600182000
(1789440817.646583) can0 01011840#FFFFFFFFFFFFFFFF
(1789440817.646982) can0 0205B881#2B1815320531E339
(1789440817.647081) can0 02051081#0000C84200000000
(1789440817.652956) can0 0205B941#0000000000000000
(1789440817.658986) can0 0205B801#00006C0600182000
(1789440817.664536) can0 01011840#FFFFFFFFFFFFFFFF
(1789440817.664912) can0 02051081#0000C84200000000
(1789440817.666926) can0 0205B881#2B1815320531E339
(1789440817.672939) can0 0205B941#0000000000000000
(1789440817.678991) can0 0205B801#00006D0600182000
(1789440817.684537) can0 01011840#FFFFFFFFFFFFFFFF
(1789440817.684927) can0 02051081#0000C84200000000
(1789440817.686988) can0 0205B881#2B1815320531E339
(1789440817.693005) can0 0205B941#0000000000000000
(1789440817.698937) can0 0205B801#00006E0600182000
(1789440817.704569) can0 01011840#FFFFFFFFFFFFFFFF
(1789440817.704961) can0 02051081#0000C84200000000
(1789440817.706928) can0 0205B881#2B1815320531E339
(1789440817.712992) can0 0205B941#0000000000000000
(1789440817.718937) can0 0205B801#00006E0600182000
(1789440817.724538) can0 01011840#FFFFFFFFFFFFFFFF
(1789440817.724928) can0 02051081#0000C84200000000
(1789440817.726930) can0 0205B881#2B1815320531E339
(1789440817.732989) can0 0205B941#0000000000000000
(1789440817.738988) can0 0205B801#00006F0600182000
(1789440817.744533) can0 01011840#FFFFFFFFFFFFFFFF
(1789440817.744918) can0 02051081#0000C84200000000
(1789440817.746977) can0 0205B881#2B1815320531E339
(1789440817.752992) can0 0205B941#0000000000000000
(1789440817.758936) can0 0205B801#00006E0600182000
(1789440817.764516) can0 01011840#FFFFFFFFFFFFFFFF
(1789440817.764901) can0 02051081#0000C84200000000
(1789440817.766978) can0 0205B881#2B1815320531E339
(1789440817.772991) can0 0205B941#0000000000000000
(1789440817.778989) can0 0205B801#00006F0600182000
(1789440817.784512) can0 01011840#FFFFFFFFFFFFFFFF
(1789440817.784894) can0 02051081#0000C84200000000
(1789440817.786975) can0 0205B881#2B1815320531E339
(1789440817.792987) can0 0205B941#0000000000000000
(1789440817.798941) can0 0205B801#0000720600182000
(1789440817.804516) can0 01011840#FFFFFFFFFFFFFFFF
(1789440817.804900) can0 02051081#0000C84200000000
(1789440817.806935) can0 0205B881#2B1815320531E339
(1789440817.812998) can0 0205B941#0000000000000000
(1789440817.818939) can0 0205B801#0000710600182000
(1789440817.824516) can0 01011840#FFFFFFFFFFFFFFFF
(1789440817.824899) can0 02051081#0000C84200000000
(1789440817.826980) can0 0205B881#2B1815320531E339
(1789440817.832989) can0 0205B941#0000000000000000
(1789440817.839009) can0 0205B801#0000710600182000
(1789440817.844569) can0 01011840#FFFFFFFFFFFFFFFF
(1789440817.844956) can0 02051081#0000C84200000000
(1789440817.846977) can0 0205B881#2B1815320531E339
(1789440817.850931) can0 0205B841#0000000000400000
(1789440817.852940) can0 0205B941#0000000000000000
(1789440817.858935) can0 0205B801#0000730600182000
(1789440817.864538) can0 01011840#FFFFFFFFFFFFFFFF
(1789440817.864921) can0 02051081#0000C84200000000
(1789440817.866929) can0 0205B881#2B1815320531E339
(1789440817.872950) can0 0205B941#0000000000000000
(1789440817.878984) can0 0205B801#0000730600182000
(1789440817.884531) can0 01011840#FFFFFFFFFFFFFFFF
(1789440817.884918) can0 02051081#0000C84200000000
(1789440817.886998) can0 0205B881#2B1815320531E339
(1789440817.892943) can0 0205B941#0000000000000000
(1789440817.898993) can0 0205B801#0000730600182000
(1789440817.904521) can0 01011840#FFFFFFFFFFFFFFFF
(1789440817.904908) can0 02051081#0000C84200000000
(1789440817.906930) can0 0205B881#2B1815320531E339
(1789440817.912989) can0 0205B941#0000000000000000
(1789440817.918990) can0 0205B801#0000750600182000
(1789440817.924509) can0 01011840#FFFFFFFFFFFFFFFF
(1789440817.924894) can0 02051081#0000C84200000000
(1789440817.926980) can0 0205B881#2B1815320531E339
(1789440817.932942) can0 0205B941#0000000000000000
(1789440817.938965) can0 0205B801#0000740600182000
(1789440817.944609) can0 01011840#FFFFFFFFFFFFFFFF
(1789440817.944997) can0 02051081#0000C84200000000
(1789440817.946972) can0 0205B881#2B1815320531E339
(1789440817.952982) can0 0205B941#0000000000000000
(1789440817.958993) can0 0205B801#0000740600182000
(1789440817.964572) can0 01011840#FFFFFFFFFFFFFFFF
(1789440817.964965) can0 02051081#0000C84200000000
(1789440817.966930) can0 0205B881#2B1815320531E339
(1789440817.972937) can0 0205B941#0000000000000000
(1789440817.978932) can0 0205B801#0000760600182000
(1789440817.984536) can0 01011840#FFFFFFFFFFFFFFFF
(1789440817.984925) can0 02051081#0000C84200000000
(1789440817.986931) can0 0205B881#2B1815320531E339
(1789440817.992988) can0 0205B941#0000000000000000
(1789440817.998984) can0 0205B801#0000750600182000
(1789440818.004536) can0 01011840#FFFFFFFFFFFFFFFF
(1789440818.004920) can0 02051081#0000C84200000000
(1789440818.006976) can0 0205B881#2B1815320531E339
(1789440818.012998) can0 0205B941#0000000000000000
(1789440818.018983) can0 0205B801#0000750600182000
(1789440818.024518) can0 01011840#FFFFFFFFFFFFFFFF
(1789440818.024904) can0 02051081#0000C84200000000
(1789440818.026928) can0 0205B881#2B1815320531E339
(1789440818.032939) can0 0205B941#0000000000000000
(1789440818.038937) can0 0205B801#0000770600182000
(1789440818.044524) can0 01011840#FFFFFFFFFFFFFFFF
(1789440818.044913) can0 02051081#0000C84200000000
(1789440818.046976) can0 0205B881#2B1815320531E339
(1789440818.052996) can0 0205B941#0000000000000000
(1789440818.058930) can0 0205B801#0000760600182000
(1789440818.064541) can0 01011840#FFFFFFFFFFFFFFFF
(1789440818.064926) can0 02051081#0000C84200000000
(1789440818.066925) can0 0205B881#2B1815320531E339
(1789440818.072946) can0 0205B941#0000000000000000
(1789440818.078935) can0 0205B801#0000770600182000
(1789440818.084516) can0 01011840#FFFFFFFFFFFFFFFF
(1789440818.084901) can0 02051081#0000C84200000000
(1789440818.086978) can0 0205B881#2B1815320531E339
(1789440818.092937) can0 0205B941#0000000000000000
(1789440818.098986) can0 0205B801#0000780600182000
(1789440818.100978) can0 0205B841#0000000000400000
(1789440818.104527) can0 01011840#FFFFFFFFFFFFFFFF
(1789440818.104909) can0 02051081#0000C84200000000
(1789440818.106974) can0 0205B881#2B1815320531E339
(1789440818.112987) can0 0205B941#0000000000000000
(1789440818.118929) can0 0205B801#0000770600182000
(1789440818.124514) can0 01011840#FFFFFFFFFFFFFFFF
(1789440818.124898) can0 02051081#0000C84200000000
(1789440818.126930) can0 0205B881#2B1815320531E339
(1789440818.132936) can0 0205B941#0000000000000000
(1789440818.138944) can0 0205B801#0000780600182000
(1789440818.144575) can0 01011840#FFFFFFFFFFFFFFFF
(1789440818.144972) can0 02051081#0000C84200000000
(1789440818.146972) can0 0205B881#2B1815320531E339
(1789440818.152936) can0 0205B941#0000000000000000
(1789440818.158931) can0 0205B801#00007A0600182000
(1789440818.164551) can0 01011840#FFFFFFFFFFFFFFFF
(1789440818.164934) can0 02051081#0000C84200000000
(1789440818.166924) can0 0205B881#2B1815320531E339
(1789440818.172935) can0 0205B941#0000000000000000
(1789440818.178987) can0 0205B801#0000770600182000
(1789440818.184513) can0 01011840#FFFFFFFFFFFFFFFF
(1789440818.184929) can0 02051081#0000C84200000000
(1789440818.186931) can0 0205B881#2B1815320531E339
(1789440818.192935) can0 0205B941#0000000000000000
(1789440818.198931) can0 0205B801#0000780600182000
(1789440818.204547) can0 01011840#FFFFFFFFFFFFFFFF
(1789440818.204930) can0 02051081#0000C84200000000
(1789440818.206973) can0 0205B881#2B1815320531E339
(1789440818.212943) can0 0205B941#0000000000000000
(1789440818.218933) can0 0205B801#00007A0600182000
(1789440818.224501) can0 01011840#FFFFFFFFFFFFFFFF
(1789440818.224886) can0 02051081#0000C84200000000
(1789440818.226971) can0 0205B881#2B1815320531E339
(1789440818.232983) can0 0205B941#0000000000000000
(1789440818.238986) can0 0205B801#0000780600182000
(1789440818.244484) can0 01011840#FFFFFFFFFFFFFFFF
(1789440818.244868) can0 02051081#0000C84200000000
(1789440818.246923) can0 0205B881#2B1815320531E339
(1789440818.252936) can0 0205B941#0000000000000000
(1789440818.258930) can0 0205B801#0000780600182000
(1789440818.264625) can0 01011840#FFFFFFFFFFFFFFFF
(1789440818.265028) can0 02051081#0000C84200000000
(1789440818.266972) can0 0205B881#2B1815320531E339
(1789440818.272989) can0 0205B941#0000000000000000
(1789440818.278981) can0 0205B801#0000780600182000
(1789440818.284550) can0 01011840#FFFFFFFFFFFFFFFF
(1789440818.284931) can0 02051081#0000C84200000000
(1789440818.286921) can0 0205B881#2B1815320531E339
(1789440818.292933) can0 0205B941#0000000000000000
(1789440818.298929) can0 0205B801#0000760600182000
(1789440818.304521) can0 01011840#FFFFFFFFFFFFFFFF
(1789440818.304908) can0 02051081#0000C84200000000
(1789440818.306926) can0 0205B881#2B1815320531E339
(1789440818.312937) can0 0205B941#0000000000000000
(1789440818.318935) can0 0205B801#0000750600182000
(1789440818.324528) can0 01011840#FFFFFFFFFFFFFFFF
(1789440818.324917) can0 02051081#0000C84200000000
(1789440818.326921) can0 0205B881#2B1815320531E339
(1789440818.332932) can0 0205B941#0000000000000000
(1789440818.338931) can0 0205B801#0000740600182000
(1789440818.344518) can0 01011840#FFFFFFFFFFFFFFFF
(1789440818.344905) can0 02051081#0000C84200000000
(1789440818.346970) can0 0205B881#2B1815320531E339
(1789440818.350928) can0 0205B841#0000000000400000
(1789440818.352975) can0 0205B941#0000000000000000
(1789440818.358929) can0 0205B801#0000710600182000
(1789440818.364519) can0 01011840#FFFFFFFFFFFFFFFF
(1789440818.364906) can0 02051081#0000C84200000000
(1789440818.366972) can0 0205B881#2B1815320531E339
(1789440818.372984) can0 0205B941#0000000000000000
(1789440818.378981) can0 0205B801#00006F0600182000
(1789440818.384531) can0 01011840#FFFFFFFFFFFFFFFF
(1789440818.384918) can0 02051081#0000C84200000000
(1789440818.386968) can0 0205B881#2B1815320531E339
(1789440818.392980) can0 0205B941#0000000000000000
(1789440818.398932) can0 0205B801#0000710600182000
(1789440818.404521) can0 01011840#FFFFFFFFFFFFFFFF
(1789440818.404910) can0 02051081#0000C84200000000
(1789440818.406920) can0 0205B881#2B1815320531E339
(1789440818.412941) can0 0205B941#0000000000000000
(1789440818.418927) can0 0205B801#00006F0600182000
(1789440818.424521) can0 01011840#FFFFFFFFFFFFFFFF
(1789440818.424907) can0 02051081#0000C84200000000
(1789440818.426918) can0 0205B881#2B1815320531E339
(1789440818.432931) can0 0205B941#0000000000000000
(1789440818.438936) can0 0205B801#00006E0600182000
(1789440818.444529) can0 01011840#FFFFFFFFFFFFFFFF
